FREQ,Re(V(VBN)),Im(V(VBN)),Re(V(XOTA:TAIL)),Im(V(XOTA:TAIL)),Re(V(XOTA:D)),Im(V(XOTA:D)),Re(V(VSS)),Im(V(VSS)),Re(V(VDD)),Im(V(VDD)),Re(V(OUT)),Im(V(OUT)),Re(V(IN)),Im(V(IN))
1.00000000e+00,6.98220588e-20,5.17015620e-11,7.73569727e-01,-4.09343157e-10,-9.20948097e-03,-4.31265158e-10,0.00000000e+00,0.00000000e+00,0.00000000e+00,0.00000000e+00,9.90909360e-01,-5.73017026e-10,1.00000000e+00,0.00000000e+00
1.02329299e+00,7.31126711e-20,5.29058461e-11,7.73569727e-01,-4.18877984e-10,-9.20948097e-03,-4.41310614e-10,0.00000000e+00,0.00000000e+00,0.00000000e+00,0.00000000e+00,9.90909360e-01,-5.86364307e-10,1.00000000e+00,0.00000000e+00
1.04712855e+00,7.65583651e-20,5.41381815e-11,7.73569727e-01,-4.28634906e-10,-9.20948097e-03,-4.51590059e-10,0.00000000e+00,0.00000000e+00,0.00000000e+00,0.00000000e+00,9.90909360e-01,-6.00022486e-10,1.00000000e+00,0.00000000e+00
1.07151931e+00,8.01664497e-20,5.53992218e-11,7.73569727e-01,-4.38619096e-10,-9.20948097e-03,-4.62108943e-10,0.00000000e+00,0.00000000e+00,0.00000000e+00,0.00000000e+00,9.90909360e-01,-6.13998805e-10,1.00000000e+00,0.00000000e+00
1.09647820e+00,8.39445781e-20,5.66896354e-11,7.73569727e-01,-4.48835847e-10,-9.20948097e-03,-4.72872843e-10,0.00000000e+00,0.00000000e+00,0.00000000e+00,0.00000000e+00,9.90909360e-01,-6.28300675e-10,1.00000000e+00,0.00000000e+00
1.12201845e+00,8.79007642e-20,5.80101066e-11,7.73569727e-01,-4.59290577e-10,-9.20948097e-03,-4.83887466e-10,0.00000000e+00,0.00000000e+00,0.00000000e+00,0.00000000e+00,9.90909360e-01,-6.42935678e-10,1.00000000e+00,0.00000000e+00
1.14815362e+00,9.20433996e-20,5.93613356e-11,7.73569727e-01,-4.69988829e-10,-9.20948097e-03,-4.95158653e-10,0.00000000e+00,0.00000000e+00,0.00000000e+00,0.00000000e+00,9.90909360e-01,-6.57911573e-10,1.00000000e+00,0.00000000e+00
1.17489755e+00,9.63812714e-20,6.07440387e-11,7.73569727e-01,-4.80936275e-10,-9.20948097e-03,-5.06692380e-10,0.00000000e+00,0.00000000e+00,0.00000000e+00,0.00000000e+00,9.90909360e-01,-6.73236303e-10,1.00000000e+00,0.00000000e+00
1.20226443e+00,1.00923581e-19,6.21589492e-11,7.73569727e-01,-4.92138720e-10,-9.20948097e-03,-5.18494762e-10,0.00000000e+00,0.00000000e+00,0.00000000e+00,0.00000000e+00,9.90909360e-01,-6.88917990e-10,1.00000000e+00,0.00000000e+00
1.23026877e+00,1.05679963e-19,6.36068171e-11,7.73569727e-01,-5.03602103e-10,-9.20948097e-03,-5.30572056e-10,0.00000000e+00,0.00000000e+00,0.00000000e+00,0.00000000e+00,9.90909360e-01,-7.04964952e-10,1.00000000e+00,0.00000000e+00
1.25892541e+00,1.10660506e-19,6.50884102e-11,7.73569727e-01,-5.15332503e-10,-9.20948097e-03,-5.42930667e-10,0.00000000e+00,0.00000000e+00,0.00000000e+00,0.00000000e+00,9.90909360e-01,-7.21385695e-10,1.00000000e+00,0.00000000e+00
1.28824955e+00,1.15875775e-19,6.66045140e-11,7.73569727e-01,-5.27336139e-10,-9.20948097e-03,-5.55577147e-10,0.00000000e+00,0.00000000e+00,0.00000000e+00,0.00000000e+00,9.90909360e-01,-7.38188927e-10,1.00000000e+00,0.00000000e+00
1.31825674e+00,1.21336832e-19,6.81559325e-11,7.73569727e-01,-5.39619376e-10,-9.20948097e-03,-5.68518201e-10,0.00000000e+00,0.00000000e+00,0.00000000e+00,0.00000000e+00,9.90909360e-01,-7.55383556e-10,1.00000000e+00,0.00000000e+00
1.34896288e+00,1.27055260e-19,6.97434881e-11,7.73569727e-01,-5.52188726e-10,-9.20948097e-03,-5.81760691e-10,0.00000000e+00,0.00000000e+00,0.00000000e+00,0.00000000e+00,9.90909360e-01,-7.72978699e-10,1.00000000e+00,0.00000000e+00
1.38038426e+00,1.33043190e-19,7.13680226e-11,7.73569727e-01,-5.65050853e-10,-9.20948097e-03,-5.95311638e-10,0.00000000e+00,0.00000000e+00,0.00000000e+00,0.00000000e+00,9.90909360e-01,-7.90983686e-10,1.00000000e+00,0.00000000e+00
1.41253754e+00,1.39313323e-19,7.30303974e-11,7.73569727e-01,-5.78212579e-10,-9.20948097e-03,-6.09178228e-10,0.00000000e+00,0.00000000e+00,0.00000000e+00,0.00000000e+00,9.90909360e-01,-8.09408063e-10,1.00000000e+00,0.00000000e+00
1.44543977e+00,1.45878957e-19,7.47314939e-11,7.73569727e-01,-5.91680880e-10,-9.20948097e-03,-6.23367811e-10,0.00000000e+00,0.00000000e+00,0.00000000e+00,0.00000000e+00,9.90909360e-01,-8.28261598e-10,1.00000000e+00,0.00000000e+00
1.47910839e+00,1.52754021e-19,7.64722140e-11,7.73569727e-01,-6.05462898e-10,-9.20948097e-03,-6.37887913e-10,0.00000000e+00,0.00000000e+00,0.00000000e+00,0.00000000e+00,9.90909360e-01,-8.47554289e-10,1.00000000e+00,0.00000000e+00
1.51356125e+00,1.59953096e-19,7.82534807e-11,7.73569727e-01,-6.19565940e-10,-9.20948097e-03,-6.52746231e-10,0.00000000e+00,0.00000000e+00,0.00000000e+00,0.00000000e+00,9.90909360e-01,-8.67296365e-10,1.00000000e+00,0.00000000e+00
1.54881662e+00,1.67491453e-19,8.00762384e-11,7.73569727e-01,-6.33997485e-10,-9.20948097e-03,-6.67950644e-10,0.00000000e+00,0.00000000e+00,0.00000000e+00,0.00000000e+00,9.90909360e-01,-8.87498292e-10,1.00000000e+00,0.00000000e+00
1.58489319e+00,1.75385082e-19,8.19414536e-11,7.73569727e-01,-6.48765184e-10,-9.20948097e-03,-6.83509213e-10,0.00000000e+00,0.00000000e+00,0.00000000e+00,0.00000000e+00,9.90909360e-01,-9.08170783e-10,1.00000000e+00,0.00000000e+00
1.62181010e+00,1.83650727e-19,8.38501153e-11,7.73569727e-01,-6.63876866e-10,-9.20948097e-03,-6.99430188e-10,0.00000000e+00,0.00000000e+00,0.00000000e+00,0.00000000e+00,9.90909360e-01,-9.29324798e-10,1.00000000e+00,0.00000000e+00
1.65958691e+00,1.92305919e-19,8.58032353e-11,7.73569727e-01,-6.79340545e-10,-9.20948097e-03,-7.15722010e-10,0.00000000e+00,0.00000000e+00,0.00000000e+00,0.00000000e+00,9.90909360e-01,-9.50971554e-10,1.00000000e+00,0.00000000e+00
1.69824365e+00,2.01369017e-19,8.78018494e-11,7.73569727e-01,-6.95164419e-10,-9.20948097e-03,-7.32393317e-10,0.00000000e+00,0.00000000e+00,0.00000000e+00,0.00000000e+00,9.90909360e-01,-9.73122527e-10,1.00000000e+00,0.00000000e+00
1.73780083e+00,2.10859247e-19,8.98470172e-11,7.73569727e-01,-7.11356878e-10,-9.20948097e-03,-7.49452949e-10,0.00000000e+00,0.00000000e+00,0.00000000e+00,0.00000000e+00,9.90909360e-01,-9.95789462e-10,1.00000000e+00,0.00000000e+00
1.77827941e+00,2.20796737e-19,9.19398231e-11,7.73569727e-01,-7.27926509e-10,-9.20948097e-03,-7.66909951e-10,0.00000000e+00,0.00000000e+00,0.00000000e+00,0.00000000e+00,9.90909360e-01,-1.01898438e-09,1.00000000e+00,0.00000000e+00
1.81970086e+00,2.31202567e-19,9.40813767e-11,7.73569727e-01,-7.44882095e-10,-9.20948097e-03,-7.84773579e-10,0.00000000e+00,0.00000000e+00,0.00000000e+00,0.00000000e+00,9.90909360e-01,-1.04271957e-09,1.00000000e+00,0.00000000e+00
1.86208714e+00,2.42098808e-19,9.62728135e-11,7.73569727e-01,-7.62232628e-10,-9.20948097e-03,-8.03053304e-10,0.00000000e+00,0.00000000e+00,0.00000000e+00,0.00000000e+00,9.90909360e-01,-1.06700763e-09,1.00000000e+00,0.00000000e+00
1.90546072e+00,2.53508573e-19,9.85152954e-11,7.73569727e-01,-7.79987307e-10,-9.20948097e-03,-8.21758818e-10,0.00000000e+00,0.00000000e+00,0.00000000e+00,0.00000000e+00,9.90909360e-01,-1.09186143e-09,1.00000000e+00,0.00000000e+00
1.94984460e+00,2.65456064e-19,1.00810011e-10,7.73569727e-01,-7.98155545e-10,-9.20948097e-03,-8.40900040e-10,0.00000000e+00,0.00000000e+00,0.00000000e+00,0.00000000e+00,9.90909360e-01,-1.11729415e-09,1.00000000e+00,0.00000000e+00
1.99526231e+00,2.77966623e-19,1.03158178e-10,7.73569727e-01,-8.16746976e-10,-9.20948097e-03,-8.60487118e-10,0.00000000e+00,0.00000000e+00,0.00000000e+00,0.00000000e+00,9.90909360e-01,-1.14331928e-09,1.00000000e+00,0.00000000e+00
2.04173794e+00,2.91066786e-19,1.05561041e-10,7.73569727e-01,-8.35771457e-10,-9.20948097e-03,-8.80530438e-10,0.00000000e+00,0.00000000e+00,0.00000000e+00,0.00000000e+00,9.90909360e-01,-1.16995060e-09,1.00000000e+00,0.00000000e+00
2.08929613e+00,3.04784341e-19,1.08019873e-10,7.73569727e-01,-8.55239075e-10,-9.20948097e-03,-9.01040626e-10,0.00000000e+00,0.00000000e+00,0.00000000e+00,0.00000000e+00,9.90909360e-01,-1.19720225e-09,1.00000000e+00,0.00000000e+00
2.13796209e+00,3.19148385e-19,1.10535979e-10,7.73569727e-01,-8.75160152e-10,-9.20948097e-03,-9.22028559e-10,0.00000000e+00,0.00000000e+00,0.00000000e+00,0.00000000e+00,9.90909360e-01,-1.22508868e-09,1.00000000e+00,0.00000000e+00
2.18776162e+00,3.34189385e-19,1.13110693e-10,7.73569727e-01,-8.95545251e-10,-9.20948097e-03,-9.43505363e-10,0.00000000e+00,0.00000000e+00,0.00000000e+00,0.00000000e+00,9.90909360e-01,-1.25362466e-09,1.00000000e+00,0.00000000e+00
2.23872114e+00,3.49939245e-19,1.15745380e-10,7.73569727e-01,-9.16405180e-10,-9.20948097e-03,-9.65482426e-10,0.00000000e+00,0.00000000e+00,0.00000000e+00,0.00000000e+00,9.90909360e-01,-1.28282533e-09,1.00000000e+00,0.00000000e+00
2.29086765e+00,3.66431374e-19,1.18441436e-10,7.73569727e-01,-9.37750998e-10,-9.20948097e-03,-9.87971401e-10,0.00000000e+00,0.00000000e+00,0.00000000e+00,0.00000000e+00,9.90909360e-01,-1.31270617e-09,1.00000000e+00,0.00000000e+00
2.34422882e+00,3.83700752e-19,1.21200291e-10,7.73569727e-01,-9.59594025e-10,-9.20948097e-03,-1.01098421e-09,0.00000000e+00,0.00000000e+00,0.00000000e+00,0.00000000e+00,9.90909360e-01,-1.34328302e-09,1.00000000e+00,0.00000000e+00
2.39883292e+00,4.01784012e-19,1.24023409e-10,7.73569727e-01,-9.81945841e-10,-9.20948097e-03,-1.03453306e-09,0.00000000e+00,0.00000000e+00,0.00000000e+00,0.00000000e+00,9.90909360e-01,-1.37457210e-09,1.00000000e+00,0.00000000e+00
2.45470892e+00,4.20719509e-19,1.26912285e-10,7.73569727e-01,-1.00481830e-09,-9.20948097e-03,-1.05863043e-09,0.00000000e+00,0.00000000e+00,0.00000000e+00,0.00000000e+00,9.90909360e-01,-1.40659000e-09,1.00000000e+00,0.00000000e+00
2.51188643e+00,4.40547408e-19,1.29868452e-10,7.73569727e-01,-1.02822352e-09,-9.20948097e-03,-1.08328910e-09,0.00000000e+00,0.00000000e+00,0.00000000e+00,0.00000000e+00,9.90909360e-01,-1.43935369e-09,1.00000000e+00,0.00000000e+00
2.57039578e+00,4.61309768e-19,1.32893477e-10,7.73569727e-01,-1.05217393e-09,-9.20948097e-03,-1.10852214e-09,0.00000000e+00,0.00000000e+00,0.00000000e+00,0.00000000e+00,9.90909360e-01,-1.47288055e-09,1.00000000e+00,0.00000000e+00
2.63026799e+00,4.83050628e-19,1.35988964e-10,7.73569727e-01,-1.07668220e-09,-9.20948097e-03,-1.13434294e-09,0.00000000e+00,0.00000000e+00,0.00000000e+00,0.00000000e+00,9.90909360e-01,-1.50718834e-09,1.00000000e+00,0.00000000e+00
2.69153480e+00,5.05816102e-19,1.39156553e-10,7.73569727e-01,-1.10176136e-09,-9.20948097e-03,-1.16076518e-09,0.00000000e+00,0.00000000e+00,0.00000000e+00,0.00000000e+00,9.90909360e-01,-1.54229527e-09,1.00000000e+00,0.00000000e+00
2.75422870e+00,5.29654481e-19,1.42397926e-10,7.73569727e-01,-1.12742467e-09,-9.20948097e-03,-1.18780288e-09,0.00000000e+00,0.00000000e+00,0.00000000e+00,0.00000000e+00,9.90909360e-01,-1.57821994e-09,1.00000000e+00,0.00000000e+00
2.81838293e+00,5.54616327e-19,1.45714800e-10,7.73569727e-01,-1.15368577e-09,-9.20948097e-03,-1.21547036e-09,0.00000000e+00,0.00000000e+00,0.00000000e+00,0.00000000e+00,9.90909360e-01,-1.61498140e-09,1.00000000e+00,0.00000000e+00
2.88403150e+00,5.80754590e-19,1.49108933e-10,7.73569727e-01,-1.18055856e-09,-9.20948097e-03,-1.24378230e-09,0.00000000e+00,0.00000000e+00,0.00000000e+00,0.00000000e+00,9.90909360e-01,-1.65259915e-09,1.00000000e+00,0.00000000e+00
2.95120923e+00,6.08124710e-19,1.52582127e-10,7.73569727e-01,-1.20805730e-09,-9.20948097e-03,-1.27275371e-09,0.00000000e+00,0.00000000e+00,0.00000000e+00,0.00000000e+00,9.90909360e-01,-1.69109313e-09,1.00000000e+00,0.00000000e+00
3.01995172e+00,6.36784745e-19,1.56136221e-10,7.73569727e-01,-1.23619657e-09,-9.20948097e-03,-1.30239996e-09,0.00000000e+00,0.00000000e+00,0.00000000e+00,0.00000000e+00,9.90909360e-01,-1.73048375e-09,1.00000000e+00,0.00000000e+00
3.09029543e+00,6.66795485e-19,1.59773101e-10,7.73569727e-01,-1.26499129e-09,-9.20948097e-03,-1.33273675e-09,0.00000000e+00,0.00000000e+00,0.00000000e+00,0.00000000e+00,9.90909360e-01,-1.77079190e-09,1.00000000e+00,0.00000000e+00
3.16227766e+00,6.98220588e-19,1.63494694e-10,7.73569727e-01,-1.29445672e-09,-9.20948097e-03,-1.36378018e-09,0.00000000e+00,0.00000000e+00,0.00000000e+00,0.00000000e+00,9.90909360e-01,-1.81203894e-09,1.00000000e+00,0.00000000e+00
3.23593657e+00,7.31126711e-19,1.67302975e-10,7.73569727e-01,-1.32460849e-09,-9.20948097e-03,-1.39554670e-09,0.00000000e+00,0.00000000e+00,0.00000000e+00,0.00000000e+00,9.90909360e-01,-1.85424675e-09,1.00000000e+00,0.00000000e+00
3.31131121e+00,7.65583651e-19,1.71199962e-10,7.73569727e-01,-1.35546259e-09,-9.20948097e-03,-1.42805315e-09,0.00000000e+00,0.00000000e+00,0.00000000e+00,0.00000000e+00,9.90909360e-01,-1.89743770e-09,1.00000000e+00,0.00000000e+00
3.38844156e+00,8.01664497e-19,1.75187721e-10,7.73569727e-01,-1.38703537e-09,-9.20948097e-03,-1.46131679e-09,0.00000000e+00,0.00000000e+00,0.00000000e+00,0.00000000e+00,9.90909360e-01,-1.94163471e-09,1.00000000e+00,0.00000000e+00
3.46736850e+00,8.39445781e-19,1.79268368e-10,7.73569727e-01,-1.41934357e-09,-9.20948097e-03,-1.49535523e-09,0.00000000e+00,0.00000000e+00,0.00000000e+00,0.00000000e+00,9.90909360e-01,-1.98686119e-09,1.00000000e+00,0.00000000e+00
3.54813389e+00,8.79007642e-19,1.83444064e-10,7.73569727e-01,-1.45240433e-09,-9.20948097e-03,-1.53018652e-09,0.00000000e+00,0.00000000e+00,0.00000000e+00,0.00000000e+00,9.90909360e-01,-2.03314113e-09,1.00000000e+00,0.00000000e+00
3.63078055e+00,9.20433996e-19,1.87717025e-10,7.73569727e-01,-1.48623517e-09,-9.20948097e-03,-1.56582915e-09,0.00000000e+00,0.00000000e+00,0.00000000e+00,0.00000000e+00,9.90909360e-01,-2.08049907e-09,1.00000000e+00,0.00000000e+00
3.71535229e+00,9.63812714e-19,1.92089517e-10,7.73569727e-01,-1.52085404e-09,-9.20948097e-03,-1.60230199e-09,0.00000000e+00,0.00000000e+00,0.00000000e+00,0.00000000e+00,9.90909360e-01,-2.12896012e-09,1.00000000e+00,0.00000000e+00
3.80189396e+00,1.00923581e-18,1.96563856e-10,7.73569727e-01,-1.55627928e-09,-9.20948097e-03,-1.63962440e-09,0.00000000e+00,0.00000000e+00,0.00000000e+00,0.00000000e+00,9.90909360e-01,-2.17854997e-09,1.00000000e+00,0.00000000e+00
3.89045145e+00,1.05679963e-18,2.01142417e-10,7.73569727e-01,-1.59252968e-09,-9.20948097e-03,-1.67781616e-09,0.00000000e+00,0.00000000e+00,0.00000000e+00,0.00000000e+00,9.90909360e-01,-2.22929492e-09,1.00000000e+00,0.00000000e+00
3.98107171e+00,1.10660506e-18,2.05827625e-10,7.73569727e-01,-1.62962446e-09,-9.20948097e-03,-1.71689752e-09,0.00000000e+00,0.00000000e+00,0.00000000e+00,0.00000000e+00,9.90909360e-01,-2.28122187e-09,1.00000000e+00,0.00000000e+00
4.07380278e+00,1.15875775e-18,2.10621967e-10,7.73569727e-01,-1.66758329e-09,-9.20948097e-03,-1.75688920e-09,0.00000000e+00,0.00000000e+00,0.00000000e+00,0.00000000e+00,9.90909360e-01,-2.33435835e-09,1.00000000e+00,0.00000000e+00
4.16869383e+00,1.21336832e-18,2.15527983e-10,7.73569727e-01,-1.70642630e-09,-9.20948097e-03,-1.79781241e-09,0.00000000e+00,0.00000000e+00,0.00000000e+00,0.00000000e+00,9.90909360e-01,-2.38873254e-09,1.00000000e+00,0.00000000e+00
4.26579519e+00,1.27055260e-18,2.20548274e-10,7.73569727e-01,-1.74617407e-09,-9.20948097e-03,-1.83968884e-09,0.00000000e+00,0.00000000e+00,0.00000000e+00,0.00000000e+00,9.90909360e-01,-2.44437327e-09,1.00000000e+00,0.00000000e+00
4.36515832e+00,1.33043190e-18,2.25685504e-10,7.73569727e-01,-1.78684769e-09,-9.20948097e-03,-1.88254069e-09,0.00000000e+00,0.00000000e+00,0.00000000e+00,0.00000000e+00,9.90909360e-01,-2.50131004e-09,1.00000000e+00,0.00000000e+00
4.46683592e+00,1.39313323e-18,2.30942394e-10,7.73569727e-01,-1.82846872e-09,-9.20948097e-03,-1.92639070e-09,0.00000000e+00,0.00000000e+00,0.00000000e+00,0.00000000e+00,9.90909360e-01,-2.55957303e-09,1.00000000e+00,0.00000000e+00
4.57088190e+00,1.45878957e-18,2.36321734e-10,7.73569727e-01,-1.87105923e-09,-9.20948097e-03,-1.97126210e-09,0.00000000e+00,0.00000000e+00,0.00000000e+00,0.00000000e+00,9.90909360e-01,-2.61919315e-09,1.00000000e+00,0.00000000e+00
4.67735141e+00,1.52754021e-18,2.41826374e-10,7.73569727e-01,-1.91464180e-09,-9.20948097e-03,-2.01717870e-09,0.00000000e+00,0.00000000e+00,0.00000000e+00,0.00000000e+00,9.90909360e-01,-2.68020200e-09,1.00000000e+00,0.00000000e+00
4.78630092e+00,1.59953096e-18,2.47459234e-10,7.73569727e-01,-1.95923953e-09,-9.20948097e-03,-2.06416482e-09,0.00000000e+00,0.00000000e+00,0.00000000e+00,0.00000000e+00,9.90909360e-01,-2.74263192e-09,1.00000000e+00,0.00000000e+00
4.89778819e+00,1.67491453e-18,2.53223300e-10,7.73569727e-01,-2.00487608e-09,-9.20948097e-03,-2.11224540e-09,0.00000000e+00,0.00000000e+00,0.00000000e+00,0.00000000e+00,9.90909360e-01,-2.80651602e-09,1.00000000e+00,0.00000000e+00
5.01187234e+00,1.75385082e-18,2.59121628e-10,7.73569727e-01,-2.05157565e-09,-9.20948097e-03,-2.16144592e-09,0.00000000e+00,0.00000000e+00,0.00000000e+00,0.00000000e+00,9.90909360e-01,-2.87188818e-09,1.00000000e+00,0.00000000e+00
5.12861384e+00,1.83650727e-18,2.65157346e-10,7.73569727e-01,-2.09936298e-09,-9.20948097e-03,-2.21179246e-09,0.00000000e+00,0.00000000e+00,0.00000000e+00,0.00000000e+00,9.90909360e-01,-2.93878305e-09,1.00000000e+00,0.00000000e+00
5.24807460e+00,1.92305919e-18,2.71333654e-10,7.73569727e-01,-2.14826343e-09,-9.20948097e-03,-2.26331172e-09,0.00000000e+00,0.00000000e+00,0.00000000e+00,0.00000000e+00,9.90909360e-01,-3.00723610e-09,1.00000000e+00,0.00000000e+00
5.37031796e+00,2.01369017e-18,2.77653827e-10,7.73569727e-01,-2.19830291e-09,-9.20948097e-03,-2.31603103e-09,0.00000000e+00,0.00000000e+00,0.00000000e+00,0.00000000e+00,9.90909360e-01,-3.07728363e-09,1.00000000e+00,0.00000000e+00
5.49540874e+00,2.10859247e-18,2.84121215e-10,7.73569727e-01,-2.24950796e-09,-9.20948097e-03,-2.36997832e-09,0.00000000e+00,0.00000000e+00,0.00000000e+00,0.00000000e+00,9.90909360e-01,-3.14896277e-09,1.00000000e+00,0.00000000e+00
5.62341325e+00,2.20796737e-18,2.90739249e-10,7.73569727e-01,-2.30190574e-09,-9.20948097e-03,-2.42518221e-09,0.00000000e+00,0.00000000e+00,0.00000000e+00,0.00000000e+00,9.90909360e-01,-3.22231154e-09,1.00000000e+00,0.00000000e+00
5.75439937e+00,2.31202567e-18,2.97511436e-10,7.73569727e-01,-2.35552401e-09,-9.20948097e-03,-2.48167196e-09,0.00000000e+00,0.00000000e+00,0.00000000e+00,0.00000000e+00,9.90909360e-01,-3.29736881e-09,1.00000000e+00,0.00000000e+00
5.88843655e+00,2.42098808e-18,3.04441367e-10,7.73569727e-01,-2.41039121e-09,-9.20948097e-03,-2.53947752e-09,0.00000000e+00,0.00000000e+00,0.00000000e+00,0.00000000e+00,9.90909360e-01,-3.37417440e-09,1.00000000e+00,0.00000000e+00
6.02559586e+00,2.53508573e-18,3.11532718e-10,7.73569727e-01,-2.46653644e-09,-9.20948097e-03,-2.59862955e-09,0.00000000e+00,0.00000000e+00,0.00000000e+00,0.00000000e+00,9.90909360e-01,-3.45276902e-09,1.00000000e+00,0.00000000e+00
6.16595002e+00,2.65456064e-18,3.18789247e-10,7.73569727e-01,-2.52398945e-09,-9.20948097e-03,-2.65915941e-09,0.00000000e+00,0.00000000e+00,0.00000000e+00,0.00000000e+00,9.90909360e-01,-3.53319434e-09,1.00000000e+00,0.00000000e+00
6.30957344e+00,2.77966623e-18,3.26214802e-10,7.73569727e-01,-2.58278072e-09,-9.20948097e-03,-2.72109919e-09,0.00000000e+00,0.00000000e+00,0.00000000e+00,0.00000000e+00,9.90909360e-01,-3.61549301e-09,1.00000000e+00,0.00000000e+00
6.45654229e+00,2.91066786e-18,3.33813321e-10,7.73569727e-01,-2.64294141e-09,-9.20948097e-03,-2.78448173e-09,0.00000000e+00,0.00000000e+00,0.00000000e+00,0.00000000e+00,9.90909360e-01,-3.69970866e-09,1.00000000e+00,0.00000000e+00
6.60693448e+00,3.04784341e-18,3.41588832e-10,7.73569727e-01,-2.70450342e-09,-9.20948097e-03,-2.84934064e-09,0.00000000e+00,0.00000000e+00,0.00000000e+00,0.00000000e+00,9.90909360e-01,-3.78588595e-09,1.00000000e+00,0.00000000e+00
6.76082975e+00,3.19148385e-18,3.49545458e-10,7.73569727e-01,-2.76749940e-09,-9.20948097e-03,-2.91571031e-09,0.00000000e+00,0.00000000e+00,0.00000000e+00,0.00000000e+00,9.90909360e-01,-3.87407056e-09,1.00000000e+00,0.00000000e+00
6.91830971e+00,3.34189385e-18,3.57687418e-10,7.73569727e-01,-2.83196274e-09,-9.20948097e-03,-2.98362593e-09,0.00000000e+00,0.00000000e+00,0.00000000e+00,0.00000000e+00,9.90909360e-01,-3.96430925e-09,1.00000000e+00,0.00000000e+00
7.07945784e+00,3.49939245e-18,3.66019028e-10,7.73569727e-01,-2.89792763e-09,-9.20948097e-03,-3.05312351e-09,0.00000000e+00,0.00000000e+00,0.00000000e+00,0.00000000e+00,9.90909360e-01,-4.05664988e-09,1.00000000e+00,0.00000000e+00
